! FREQUENCY SAMPLE POINTS =	400
! NUMBER OF PORTS         =	4
! XC5VLX110T - MGT_TX_118
!
! PORT#     PORT_NAME     NET_NAME
!
!  Port1:  B1-AE2     MGTTXN0_118
!  Port2:  B1-AD2     MGTTXP0_118
!  Port3:  D1-1589    MGTTXN0_118
!  Port4:  D1-1586    MGTTXP0_118
!
#  Hz  S  RI    R  50.00
! 
 0.00000E+00  0.7600000000E-03 -0.1895280000E-03  0.6955480000E-03 -0.1724090000E-03  0.9991310000E+00  0.2059570000E-03 -0.8161300000E-03 -0.2262330000E-04
              0.6955480000E-03 -0.1724090000E-03  0.8392000000E-03  0.2094320000E-03 -0.6501440000E-03  0.1750500000E-03  0.9989940000E+00 -0.3498810000E-03
              0.9991310000E+00  0.2059570000E-03 -0.6501440000E-03  0.1750500000E-03  0.8260000000E-03 -0.2256350000E-03  0.7723620000E-03  0.4703880000E-04
             -0.8161300000E-03 -0.2262330000E-04  0.9989940000E+00 -0.3498810000E-03  0.7723620000E-03  0.4703880000E-04  0.1246400000E-02 -0.5561210000E-03
 0.50125E+08  0.1250000000E-02  0.5144880000E-02  0.1541610000E-02  0.7536780000E-02  0.9977380000E+00 -0.3361270000E-01 -0.1718080000E-02 -0.6185630000E-02
              0.1541610000E-02  0.7536780000E-02  0.1129200000E-02  0.3875240000E-02 -0.1832870000E-02 -0.5870950000E-02  0.9977950000E+00 -0.3266830000E-01
              0.9977380000E+00 -0.3361270000E-01 -0.1832870000E-02 -0.5870950000E-02  0.1780000000E-02  0.4930870000E-02  0.2122930000E-02  0.7317360000E-02
             -0.1718080000E-02 -0.6185630000E-02  0.9977950000E+00 -0.3266830000E-01  0.2122930000E-02  0.7317360000E-02  0.1832800000E-02  0.3504510000E-02
 0.10025E+09  0.1289600000E-02  0.1058180000E-01  0.2023830000E-02  0.1523820000E-01  0.9956180000E+00 -0.6737700000E-01 -0.2448770000E-02 -0.1242800000E-01
              0.2023830000E-02  0.1523820000E-01  0.1074000000E-02  0.7864200000E-02 -0.2567410000E-02 -0.1209910000E-01  0.9957970000E+00 -0.6530410000E-01
              0.9956180000E+00 -0.6737700000E-01 -0.2567410000E-02 -0.1209910000E-01  0.2720400000E-02  0.1020620000E-01  0.3408080000E-02  0.1486420000E-01
             -0.2448770000E-02 -0.1242800000E-01  0.9957970000E+00 -0.6530410000E-01  0.3408080000E-02  0.1486420000E-01  0.2560800000E-02  0.7338920000E-02
 0.15038E+09  0.1498400000E-02  0.1604840000E-01  0.2809530000E-02  0.2293670000E-01  0.9922210000E+00 -0.1010430000E+00 -0.3676530000E-02 -0.1863090000E-01
              0.2809530000E-02  0.2293670000E-01  0.1116400000E-02  0.1188810000E-01 -0.3796680000E-02 -0.1828820000E-01  0.9926110000E+00 -0.9784960000E-01
              0.9922210000E+00 -0.1010430000E+00 -0.3796680000E-02 -0.1828820000E-01  0.4422800000E-02  0.1535430000E-01  0.5531270000E-02  0.2226670000E-01
             -0.3676530000E-02 -0.1863090000E-01  0.9926110000E+00 -0.9784960000E-01  0.5531270000E-02  0.2226670000E-01  0.3906800000E-02  0.1107040000E-01
 0.20050E+09  0.1880800000E-02  0.2155640000E-01  0.3901650000E-02  0.3063520000E-01  0.9875440000E+00 -0.1345740000E+00 -0.5404530000E-02 -0.2477880000E-01
              0.3901650000E-02  0.3063520000E-01  0.1261200000E-02  0.1596080000E-01 -0.5524210000E-02 -0.2442350000E-01  0.9882360000E+00 -0.1302710000E+00
              0.9875440000E+00 -0.1345740000E+00 -0.5524210000E-02 -0.2442350000E-01  0.6880400000E-02  0.2031440000E-01  0.8485110000E-02  0.2946160000E-01
             -0.5404530000E-02 -0.2477880000E-01  0.9882360000E+00 -0.1302710000E+00  0.8485110000E-02  0.2946160000E-01  0.5866800000E-02  0.1464950000E-01
 0.25063E+09  0.2444400000E-02  0.2711750000E-01  0.5304290000E-02  0.3833650000E-01  0.9815860000E+00 -0.1679310000E+00 -0.7637490000E-02 -0.3085590000E-01
              0.5304290000E-02  0.3833650000E-01  0.1516000000E-02  0.2009590000E-01 -0.7755100000E-02 -0.3048920000E-01  0.9826700000E+00 -0.1625320000E+00
              0.9815860000E+00 -0.1679310000E+00 -0.7755100000E-02 -0.3048920000E-01  0.1008600000E-01  0.2502450000E-01  0.1226020000E-01  0.3638470000E-01
             -0.7637490000E-02 -0.3085590000E-01  0.9826700000E+00 -0.1625320000E+00  0.1226020000E-01  0.3638470000E-01  0.8434400000E-02  0.1802590000E-01
 0.30075E+09  0.3198400000E-02  0.3274330000E-01  0.7022760000E-02  0.4604320000E-01  0.9743440000E+00 -0.2010740000E+00 -0.1038170000E-01 -0.3684530000E-01
              0.7022760000E-02  0.4604320000E-01  0.1890000000E-02  0.2430710000E-01 -0.1049610000E-01 -0.3646870000E-01  0.9759100000E+00 -0.1945990000E+00
              0.9743440000E+00 -0.2010740000E+00 -0.1049610000E-01 -0.3646870000E-01  0.1402880000E-01  0.2942190000E-01  0.1684500000E-01  0.4297100000E-01
             -0.1038170000E-01 -0.3684530000E-01  0.9759100000E+00 -0.1945990000E+00  0.1684500000E-01  0.4297100000E-01  0.1160200000E-01  0.2114830000E-01
 0.35088E+09  0.4152800000E-02  0.3844530000E-01  0.9063790000E-02  0.5375860000E-01  0.9658140000E+00 -0.2339640000E+00 -0.1364500000E-01 -0.4272880000E-01
              0.9063790000E-02  0.5375860000E-01  0.2394000000E-02  0.2860770000E-01 -0.1375560000E-01 -0.4234430000E-01  0.9679540000E+00 -0.2264350000E+00
              0.9658140000E+00 -0.2339640000E+00 -0.1375560000E-01 -0.4234430000E-01  0.1869760000E-01  0.3344230000E-01  0.2222560000E-01  0.4915450000E-01
             -0.1364500000E-01 -0.4272880000E-01  0.9679540000E+00 -0.2264350000E+00  0.2222560000E-01  0.4915450000E-01  0.1536040000E-01  0.2396450000E-01
 0.40100E+09  0.5320800000E-02  0.4423500000E-01  0.1143560000E-01  0.6148570000E-01  0.9559890000E+00 -0.2665600000E+00 -0.1743700000E-01 -0.4848710000E-01
              0.1143560000E-01  0.6148570000E-01  0.3040800000E-02  0.3301090000E-01 -0.1754380000E-01 -0.4809670000E-01  0.9587950000E+00 -0.2580030000E+00
              0.9559890000E+00 -0.2665600000E+00 -0.1754380000E-01 -0.4809670000E-01  0.2407720000E-01  0.3701980000E-01  0.2838600000E-01  0.5486770000E-01
             -0.1743700000E-01 -0.4848710000E-01  0.9587950000E+00 -0.2580030000E+00  0.2838600000E-01  0.5486770000E-01  0.1969840000E-01  0.2642030000E-01
 0.45113E+09  0.6718000000E-02  0.5012360000E-01  0.1414840000E-01  0.6922790000E-01  0.9448640000E+00 -0.2988170000E+00 -0.2176910000E-01 -0.5409920000E-01
              0.1414840000E-01  0.6922790000E-01  0.3846400000E-02  0.3752970000E-01 -0.2187270000E-01 -0.5370490000E-01  0.9484300000E+00 -0.2892620000E+00
              0.9448640000E+00 -0.2988170000E+00 -0.2187270000E-01 -0.5370490000E-01  0.3015120000E-01  0.4008660000E-01  0.3530720000E-01  0.6004150000E-01
             -0.2176910000E-01 -0.5409920000E-01  0.9484300000E+00 -0.2892620000E+00  0.3530720000E-01  0.6004150000E-01  0.2460400000E-01  0.2846000000E-01
 0.50125E+09  0.8362400000E-02  0.5612270000E-01  0.1721410000E-01  0.7698880000E-01  0.9324300000E+00 -0.3306910000E+00 -0.2665450000E-01 -0.5954210000E-01
              0.1721410000E-01  0.7698880000E-01  0.4828400000E-02  0.4217710000E-01 -0.2675630000E-01 -0.5914590000E-01  0.9368500000E+00 -0.3201740000E+00
              0.9324300000E+00 -0.3306910000E+00 -0.2675630000E-01 -0.5914590000E-01  0.3690040000E-01  0.4257220000E-01  0.4296750000E-01  0.6460460000E-01
             -0.2665450000E-01 -0.5954210000E-01  0.9368500000E+00 -0.3201740000E+00  0.4296750000E-01  0.6460460000E-01  0.3006200000E-01  0.3002560000E-01
 0.55138E+09  0.1027480000E-01  0.6224360000E-01  0.2064720000E-01  0.8477240000E-01  0.9186780000E+00 -0.3621350000E+00 -0.3210850000E-01 -0.6479020000E-01
              0.2064720000E-01  0.8477240000E-01  0.6008000000E-02  0.4696580000E-01 -0.3221060000E-01 -0.6439400000E-01  0.9240470000E+00 -0.3506950000E+00
              0.9186780000E+00 -0.3621350000E+00 -0.3221060000E-01 -0.6439400000E-01  0.4430120000E-01  0.4440340000E-01  0.5134220000E-01  0.6848330000E-01
             -0.3210850000E-01 -0.6479020000E-01  0.9240470000E+00 -0.3506950000E+00  0.5134220000E-01  0.6848330000E-01  0.3605440000E-01  0.3105650000E-01
 0.60150E+09  0.1247920000E-01  0.6849740000E-01  0.2446490000E-01  0.9258250000E-01  0.9035950000E+00 -0.3930990000E+00 -0.3814860000E-01 -0.6981540000E-01
              0.2446490000E-01  0.9258250000E-01  0.7408000000E-02  0.5190800000E-01 -0.3825380000E-01 -0.6942080000E-01  0.9100120000E+00 -0.3807810000E+00
              0.9035950000E+00 -0.3930990000E+00 -0.3825380000E-01 -0.6942080000E-01  0.5232840000E-01  0.4550350000E-01  0.6040300000E-01  0.7160090000E-01
             -0.3814860000E-01 -0.6981540000E-01  0.9100120000E+00 -0.3807810000E+00  0.6040300000E-01  0.7160090000E-01  0.4256160000E-01  0.3148900000E-01
 0.65163E+09  0.1500400000E-01  0.7489500000E-01  0.2868780000E-01  0.1004230000E+00  0.8871690000E+00 -0.4235280000E+00 -0.4479460000E-01 -0.7458570000E-01
              0.2868780000E-01  0.1004230000E+00  0.9056800000E-02  0.5701580000E-01 -0.4490660000E-01 -0.7419390000E-01  0.8947320000E+00 -0.4103820000E+00
              0.8871690000E+00 -0.4235280000E+00 -0.4490660000E-01 -0.7419390000E-01  0.6095160000E-01  0.4579170000E-01  0.7011730000E-01  0.7387720000E-01
             -0.4479460000E-01 -0.7458570000E-01  0.8947320000E+00 -0.4103820000E+00  0.7011730000E-01  0.7387720000E-01  0.4955960000E-01  0.3125600000E-01
 0.70175E+09  0.1788160000E-01  0.8144680000E-01  0.3334010000E-01  0.1082990000E+00  0.8693840000E+00 -0.4533640000E+00 -0.5206880000E-01 -0.7906520000E-01
              0.3334010000E-01  0.1082990000E+00  0.1098560000E-01  0.6230060000E-01 -0.5219200000E-01 -0.7867660000E-01  0.8781960000E+00 -0.4394480000E+00
              0.8693840000E+00 -0.4533640000E+00 -0.5219200000E-01 -0.7867660000E-01  0.7013520000E-01  0.4518260000E-01  0.8044830000E-01  0.7522770000E-01
             -0.5206880000E-01 -0.7906520000E-01  0.8781960000E+00 -0.4394480000E+00  0.8044830000E-01  0.7522770000E-01  0.5702160000E-01  0.3028580000E-01
 0.75188E+09  0.2115000000E-01  0.8816240000E-01  0.3845050000E-01  0.1162130000E+00  0.8502230000E+00 -0.4825450000E+00 -0.5999600000E-01 -0.8321250000E-01
              0.3845050000E-01  0.1162130000E+00  0.1323040000E-01  0.6777270000E-01 -0.6013570000E-01 -0.8282700000E-01  0.8603860000E+00 -0.4679210000E+00
              0.8502230000E+00 -0.4825450000E+00 -0.6013570000E-01 -0.8282700000E-01  0.7983840000E-01  0.4358490000E-01  0.9135330000E-01  0.7556320000E-01
             -0.5999600000E-01 -0.8321250000E-01  0.8603860000E+00 -0.4679210000E+00  0.9135330000E-01  0.7556320000E-01  0.6491520000E-01  0.2850200000E-01
 0.80201E+09  0.2485240000E-01  0.9505040000E-01  0.4405310000E-01  0.1241680000E+00  0.8296640000E+00 -0.5110000000E+00 -0.6860400000E-01 -0.8698030000E-01
              0.4405310000E-01  0.1241680000E+00  0.1583280000E-01  0.7344150000E-01 -0.6876620000E-01 -0.8659670000E-01  0.8412850000E+00 -0.4957400000E+00
              0.8296640000E+00 -0.5110000000E+00 -0.6876620000E-01 -0.8659670000E-01  0.9001400000E-01  0.4090130000E-01  0.1027830000E+00  0.7478880000E-01
             -0.6860400000E-01 -0.8698030000E-01  0.8412850000E+00 -0.4957400000E+00  0.1027830000E+00  0.7478880000E-01  0.7320280000E-01  0.2582260000E-01
 0.85213E+09  0.2903920000E-01  0.1021180000E+00  0.5018800000E-01  0.1321670000E+00  0.8076860000E+00 -0.5386520000E+00 -0.7792310000E-01 -0.9031340000E-01
              0.5018800000E-01  0.1321670000E+00  0.1884040000E-01  0.7931460000E-01 -0.7811440000E-01 -0.8992940000E-01  0.8208750000E+00 -0.5228360000E+00
              0.8076860000E+00 -0.5386520000E+00 -0.7811440000E-01 -0.8992940000E-01  0.1006050000E+00  0.3702680000E-01  0.1146810000E+00  0.7280260000E-01
             -0.7792310000E-01 -0.9031340000E-01  0.8208750000E+00 -0.5228360000E+00  0.1146810000E+00  0.7280260000E-01  0.8183880000E-01  0.2215860000E-01
 0.90226E+09  0.3376920000E-01  0.1093690000E+00  0.5690260000E-01  0.1402080000E+00  0.7842640000E+00 -0.5654140000E+00 -0.8798640000E-01 -0.9314770000E-01
              0.5690260000E-01  0.1402080000E+00  0.2230760000E-01  0.8539710000E-01 -0.8821410000E-01 -0.9275930000E-01  0.7991330000E+00 -0.5491320000E+00
              0.7842640000E+00 -0.5654140000E+00 -0.8821410000E-01 -0.9275930000E-01  0.1115460000E+00  0.3184780000E-01  0.1269790000E+00  0.6949550000E-01
             -0.8798640000E-01 -0.9314770000E-01  0.7991330000E+00 -0.5491320000E+00  0.1269790000E+00  0.6949550000E-01  0.9077080000E-01  0.1741390000E-01
 0.95238E+09  0.3911000000E-01  0.1168040000E+00  0.6425300000E-01  0.1482900000E+00  0.7593700000E+00 -0.5911860000E+00 -0.9882940000E-01 -0.9540740000E-01
              0.6425300000E-01  0.1482900000E+00  0.2629800000E-01  0.9169080000E-01 -0.9910130000E-01 -0.9500920000E-01  0.7760360000E+00 -0.5745390000E+00
              0.7593700000E+00 -0.5911860000E+00 -0.9910130000E-01 -0.9500920000E-01  0.1227560000E+00  0.2524120000E-01  0.1395990000E+00  0.6474930000E-01
             -0.9882940000E-01 -0.9540740000E-01  0.7760360000E+00 -0.5745390000E+00  0.1395990000E+00  0.6474930000E-01  0.9993320000E-01  0.1148330000E-01
 0.10025E+10  0.4514040000E-01  0.1244190000E+00  0.7230520000E-01  0.1564060000E+00  0.7329760000E+00 -0.6158540000E+00 -0.1104900000E+00 -0.9700300000E-01
              0.7230520000E-01  0.1564060000E+00  0.3088440000E-01  0.9819300000E-01 -0.1108140000E+00 -0.9658760000E-01  0.7515590000E+00 -0.5989580000E+00
              0.7329760000E+00 -0.6158540000E+00 -0.1108140000E+00 -0.9658760000E-01  0.1341380000E+00  0.1707300000E-01  0.1524460000E+00  0.5843630000E-01
             -0.1104900000E+00 -0.9700300000E-01  0.7515590000E+00 -0.5989580000E+00  0.1524460000E+00  0.5843630000E-01  0.1092490000E+00  0.4252450000E-02
 0.10526E+10  0.5195160000E-01  0.1322040000E+00  0.8113680000E-01  0.1645410000E+00  0.7050540000E+00 -0.6392880000E+00 -0.1230050000E+00 -0.9782830000E-01
              0.8113680000E-01  0.1645410000E+00  0.3615000000E-01  0.1048940000E+00 -0.1233900000E+00 -0.9738590000E-01  0.7256770000E+00 -0.6222720000E+00
              0.7050540000E+00 -0.6392880000E+00 -0.1233900000E+00 -0.9738590000E-01  0.1455780000E+00  0.7197460000E-02  0.1654060000E+00  0.5041770000E-01
             -0.1230050000E+00 -0.9782830000E-01  0.7256770000E+00 -0.6222720000E+00  0.1654060000E+00  0.5041770000E-01  0.1186220000E+00 -0.4404000000E-02
 0.11028E+10  0.5964920000E-01  0.1401370000E+00  0.9083900000E-01  0.1726730000E+00  0.6755750000E+00 -0.6613320000E+00 -0.1364150000E+00 -0.9775620000E-01
              0.9083900000E-01  0.1726730000E+00  0.4219240000E-01  0.1117770000E+00 -0.1368680000E+00 -0.9727450000E-01  0.6983650000E+00 -0.6443480000E+00
              0.6755750000E+00 -0.6613320000E+00 -0.1368680000E+00 -0.9727450000E-01  0.1569300000E+00 -0.4544130000E-02  0.1783430000E+00  0.4054330000E-01
             -0.1364150000E+00 -0.9775620000E-01  0.6983650000E+00 -0.6443480000E+00  0.1783430000E+00  0.4054330000E-01  0.1279340000E+00 -0.1462260000E-01
 0.11529E+10  0.6835600000E-01  0.1481840000E+00  0.1015190000E+00  0.1807700000E+00  0.6445150000E+00 -0.6818090000E+00 -0.1507520000E+00 -0.9663460000E-01
              0.1015190000E+00  0.1807700000E+00  0.4912240000E-01  0.1188110000E+00 -0.1512810000E+00 -0.9609840000E-01  0.6696020000E+00 -0.6650270000E+00
              0.6445150000E+00 -0.6818090000E+00 -0.1512810000E+00 -0.9609840000E-01  0.1680210000E+00 -0.1832310000E-01  0.1910870000E+00  0.2865080000E-01
             -0.1507520000E+00 -0.9663460000E-01  0.6696020000E+00 -0.6650270000E+00  0.1910870000E+00  0.2865080000E-01  0.1370400000E+00 -0.2655180000E-01
 0.12030E+10  0.7821280000E-01  0.1562920000E+00  0.1132990000E+00  0.1887800000E+00  0.6118590000E+00 -0.7005040000E+00 -0.1660460000E+00 -0.9428100000E-01
              0.1132990000E+00  0.1887800000E+00  0.5706800000E-01  0.1259490000E+00 -0.1666570000E+00 -0.9367150000E-01  0.6393720000E+00 -0.6841230000E+00
              0.6118590000E+00 -0.7005040000E+00 -0.1666570000E+00 -0.9367150000E-01  0.1786290000E+00 -0.3432330000E-01  0.2034310000E+00  0.1456670000E-01
             -0.1660460000E+00 -0.9428100000E-01  0.6393720000E+00 -0.6841230000E+00  0.2034310000E+00  0.1456670000E-01  0.1457580000E+00 -0.4035110000E-01
 0.12531E+10  0.8938200000E-01  0.1643830000E+00  0.1263250000E+00  0.1966280000E+00  0.5776050000E+00 -0.7171660000E+00 -0.1823120000E+00 -0.9047610000E-01
              0.1263250000E+00  0.1966280000E+00  0.6617560000E-01  0.1331220000E+00 -0.1830100000E+00 -0.8977080000E-01  0.6076760000E+00 -0.7014160000E+00
              0.5776050000E+00 -0.7171660000E+00 -0.1830100000E+00 -0.8977080000E-01  0.1884840000E+00 -0.5273810000E-01  0.2151160000E+00 -0.1891620000E-02
             -0.1823120000E+00 -0.9047610000E-01  0.6076760000E+00 -0.7014160000E+00  0.2151160000E+00 -0.1891620000E-02  0.1538600000E+00 -0.5618950000E-01
 0.13033E+10  0.1020470000E+00  0.1723460000E+00  0.1407600000E+00  0.2042100000E+00  0.5417740000E+00 -0.7314970000E+00 -0.1995450000E+00 -0.8495680000E-01
              0.1407600000E+00  0.2042100000E+00  0.7661000000E-01  0.1402310000E+00 -0.2003310000E+00 -0.8412930000E-01  0.5745280000E+00 -0.7166430000E+00
              0.5417740000E+00 -0.7314970000E+00 -0.2003310000E+00 -0.8412930000E-01  0.1972440000E+00 -0.7376580000E-01  0.2258230000E+00 -0.2091150000E-01
             -0.1995450000E+00 -0.8495680000E-01  0.5745280000E+00 -0.7166430000E+00  0.2258230000E+00 -0.2091150000E-01  0.1610590000E+00 -0.7424140000E-01
 0.13534E+10  0.1164130000E+00  0.1800200000E+00  0.1567870000E+00  0.2113750000E+00  0.5044260000E+00 -0.7431440000E+00 -0.2177060000E+00 -0.7740880000E-01
              0.1567870000E+00  0.2113750000E+00  0.8855600000E-01  0.1471360000E+00 -0.2185780000E+00 -0.7642810000E-01  0.5399790000E+00 -0.7294980000E+00
              0.5044260000E+00 -0.7431440000E+00 -0.2185780000E+00 -0.7642810000E-01  0.2044820000E+00 -0.9759990000E-01  0.2351510000E+00 -0.4267620000E-01
             -0.2177060000E+00 -0.7740880000E-01  0.5399790000E+00 -0.7294980000E+00  0.2351510000E+00 -0.4267620000E-01  0.1669960000E+00 -0.9467850000E-01
 0.14035E+10  0.1327040000E+00  0.1871870000E+00  0.1746100000E+00  0.2179180000E+00  0.4656730000E+00 -0.7516910000E+00 -0.2367060000E+00 -0.6745940000E-01
              0.1746100000E+00  0.2179180000E+00  0.1022140000E+00  0.1536400000E+00 -0.2376570000E+00 -0.6629020000E-01  0.5041260000E+00 -0.7396160000E+00
              0.4656730000E+00 -0.7516910000E+00 -0.2376570000E+00 -0.6629020000E-01  0.2096640000E+00 -0.1244130000E+00  0.2425990000E+00 -0.6735010000E-01
             -0.2367060000E+00 -0.6745940000E-01  0.5041260000E+00 -0.7396160000E+00  0.2425990000E+00 -0.6735010000E-01  0.1712200000E+00 -0.1176560000E+00
 0.14536E+10  0.1511560000E+00  0.1935440000E+00  0.1944390000E+00  0.2235570000E+00  0.4257140000E+00 -0.7566570000E+00 -0.2563790000E+00 -0.5467280000E-01
              0.1944390000E+00  0.2235570000E+00  0.1177940000E+00  0.1594760000E+00 -0.2573940000E+00 -0.5327480000E-01  0.4671370000E+00 -0.7465760000E+00
              0.4257140000E+00 -0.7566570000E+00 -0.2573940000E+00 -0.5327480000E-01  0.2121250000E+00 -0.1543300000E+00  0.2475450000E+00 -0.9505460000E-01
             -0.2563790000E+00 -0.5467280000E-01  0.4671370000E+00 -0.7465760000E+00  0.2475450000E+00 -0.9505460000E-01  0.1731630000E+00 -0.1432920000E+00
 0.15038E+10  0.1720010000E+00  0.1986830000E+00  0.2164850000E+00  0.2279100000E+00  0.3848650000E+00 -0.7574920000E+00 -0.2764500000E+00 -0.3854930000E-01
              0.2164850000E+00  0.2279100000E+00  0.1355050000E+00  0.1642850000E+00 -0.2775060000E+00 -0.3687880000E-01  0.4292850000E+00 -0.7498950000E+00
              0.3848650000E+00 -0.7574920000E+00 -0.2775060000E+00 -0.3687880000E-01  0.2110430000E+00 -0.1873880000E+00  0.2492230000E+00 -0.1258300000E+00
             -0.2764500000E+00 -0.3854930000E-01  0.4292850000E+00 -0.7498950000E+00  0.2492230000E+00 -0.1258300000E+00  0.1721270000E+00 -0.1716300000E+00
