!!!!!!!!!!!!!!!!!!!!!!!!!!!!!!!!!!!!!!!!!!!!!!!!!!!!!!!!!!!!!!!!!!!!!!!!!!!
!                        COPYRIGHT, TYCO ELECTRONICS                      !
!                     ALL INTERNATIONAL RIGHTS RESERVED                   !
!!!!!!!!!!!!!!!!!!!!!!!!!!!!!!!!!!!!!!!!!!!!!!!!!!!!!!!!!!!!!!!!!!!!!!!!!!!
!!!!!!!!!!!!!!!!!!!!!!!!!!!!!!!!!!!!!!!!!!!!!!!!!!!!!!!!!!!!!!!!!!!!!!!!!!!
!! These models are covered by a licensing agreement that restricts       !
!! their use and distribution.  If you have questions about the           !
!! restrictions, contact the appropriate organization within              !
!! your company                                                           !
!!!!!!!!!!!!!!!!!!!!!!!!!!!!!!!!!!!!!!!!!!!!!!!!!!!!!!!!!!!!!!!!!!!!!!!!!!!
! THESE MODELS REPRESENT TEC/AMP CONNECTORS ONLY. DUE TO INTERNAL         !
! DESIGN AND MATERIALS, THEY SHOULD NOT BE USED FOR PRODUCTS              !
! MANUFACTURED BY COMPANIES OTHER THAN AMP.                               !
!                                                                         !
! CHECK WITH TEC/AMP FOR THE MOST CURRENT MODEL SET                       !
!                                                                         !
! FOR MORE INFORMATION, EMAIL: modeling@tycoelectronics.com               !
!                       URL:   http://www.amp.com/simulation/             !
!                                                                         !
! PRODUCT INFORMATION CENTER:  1-800-522-6752                             !
!!!!!!!!!!!!!!!!!!!!!!!!!!!!!!!!!!!!!!!!!!!!!!!!!!!!!!!!!!!!!!!!!!!!!!!!!!!
! Each file is named 'Port1Port2Port3Port4.s4p', where port 1 and         !
! port 3 are input ports and port 2 and port 4 are output ports.          !
!                                                                         !
! For example, Ba05Da05Bb05Db05.s4p would have port 1 at backplane (B) a5 !
! port 2 at daughtercard (D) a5, port 3 at backplane (B) b5,              !
! and port 4 at daughtercard (D) b5.                                      !
!                                                                         !
! Keep in mind that each file is the throughput for                       !
! footprint-connector-footprint.  Test board traces are calibrated out,   !
! but the s-parameters include a signal path that goes through the        !
! connector footprint in a given thickness board, the connector itself,   !
! and the connector footprint in a second board.                          !
!                                                                         !
! A zero Hertz interpolation data point has been added for convenience.   !
!!!!!!!!!!!!!!!!!!!!!!!!!!!!!!!!!!!!!!!!!!!!!!!!!!!!!!!!!!!!!!!!!!!!!!!!!!!
!
! Connector: Z-DOK, 0.050" PITCH,  4 ROW, RIGHT ANGLE PLUG TO RIGHT ANGLE RECEPTACLE
! Pins     : A3A4
! Board    : 0.093" Thick FR4
! Filename : BA03DA03BA04DA04.s4p
! Rev Date : 9/15/02
! Status   : VALIDATED MEASURED MODEL
! Structure: 4 Port S-parameter
! Rating   : 50 MHz to 10.05 GHz
! Transform Limits : 50 ps Min. Time Resolution 1/(2*MaxFreq)
!
!
# HZ  S  MA R  50 
!
! FREQ                  S11                         S12                         S13                         S14
!                       S21                        S22                         S23                         S24
!                       S31                         S32                         S33                         S34
!                       S41                         S42                         S43                         S44
!                  MAG       ANG               MAG       ANG               MAG       ANG               MAG       ANG
00000000           0.0000    0.000             1.0000    0.000             0.0000    0.000             0.0000    0.000           
                   1.0000    0.000             0.0000    0.000             0.0000    0.000             0.0000    0.000           
                   0.0000    0.000             0.0000    0.000             0.0000    0.000             1.0000    0.000           
                   0.0000    0.000             0.0000    0.000             1.0000    0.000             0.0000    0.000  

5e+007             0.030458        70.761      0.99151       -2.6886       0.014989        80.678      0.0062811       -97.007    
                   0.9953       -2.3759        0.030934        83.77       0.0052349       -56.649     0.015232        86.601     
                   0.015693        88.583      0.0067707       -91.384     0.026466        68.848      1.001       -2.6316        
                   0.0082976       -96.799     0.012537        72.916      0.99069       -2.3374       0.039634         79.0      
 
6.25e+007          0.038088        79.678      0.99353       -4.3053       0.01735         85.65       0.0081399       -105.47    
                   0.99675       -4.4743       0.038669        87.74       0.0089688       -98.509     0.018181        85.831     
                   0.018081        85.232      0.008449       -104.62      0.039305        83.536      0.99576       -4.4189      
                   0.0085874       -98.442     0.019799        77.317      0.99485       -4.5146       0.038864        92.65      
 
7.5e+007           0.044936        86.223      0.99672       -4.9216       0.021253         81.51      0.0098344       -105.86    
                   1.0003       -5.0931        0.052173        95.87       0.007733       -98.453      0.02233        80.236      
                   0.022536        81.585      0.0094439        -104.7     0.043702        85.193      0.99618       -5.0511      
                   0.0095495       -103.94     0.023281        78.023      0.99979       -5.1697       0.048614        100.6      
 
8.75e+007          0.052191        85.145      0.99833       -5.6735       0.02644        82.777       0.011342        -107.2     
                   0.99731       -5.6141       0.054884        91.33       0.0099677       -105.38     0.026106        81.227     
                   0.025026         81.93      0.010908       -111.26      0.053664        85.429      0.99928       -5.8316      
                   0.011242       -108.55      0.025552         80.27      0.99843       -5.6764       0.059355        93.44      
 
1e+008             0.059013        80.317      0.99477       -6.5494       0.028868        81.705      0.012155       -110.58     
                   0.9926       -6.5213        0.062926        83.00       0.013218       -110.18      0.029619        80.324     
                   0.028454        77.086      0.012185       -110.36      0.059753        80.015      0.99418       -6.7553      
                   0.01252       -111.88       0.028319        82.714      0.99501       -6.7743       0.062522        83.36      
 
1.125e+008         0.064606        80.902      0.99412       -7.2908       0.032486        79.769      0.013723       -111.86     
                   0.99556       -7.3015       0.065897        84.63       0.013277       -109.58      0.03318        79.671      
                   0.032288        78.513      0.01367       -113.04       0.065318          80.3      0.99487       -7.7001      
                   0.013259       -110.18      0.032857        80.966      0.9954       -7.4762        0.066849        83.57      
 
1.25e+008          0.074001        77.859      0.99172       -8.0558       0.035851        78.062      0.015038       -115.92     
                   0.99093       -8.2085       0.072278        81.00       0.015228       -114.27      0.036439        78.805     
                   0.03541        78.778       0.015291       -113.91      0.075005        77.221      0.99085       -8.2768      
                   0.014894       -114.44      0.036677        77.784      0.99166       -8.4732       0.072277        82.36      
 
1.375e+008         0.07888        76.794       0.98811       -9.1307       0.039087        76.712      0.016135       -115.17     
                   0.98998       -9.0918       0.080209        83.40       0.015857       -116.52      0.039632        77.639     
                   0.039396        76.548      0.015948       -116.39      0.080467        76.087      0.98944       -9.3403      
                   0.016582        -115.8      0.039609        77.132      0.98956       -9.3392       0.080059        82.38      
 
1.5e+008           0.082788        75.562      0.99       -9.6966          0.042874        76.572      0.017376       -117.16     
                   0.98723       -9.8877       0.080137        82.46       0.017306       -117.17      0.042904        77.005     
                   0.043106        76.771      0.01775       -118.47       0.084252        75.084      0.98995       -9.9984      
                   0.017084       -117.95      0.042449        76.694      0.98787       -10.109       0.081472        84.41      
 
1.625e+008         0.085492        74.243      0.98705       -10.442       0.045742        75.548      0.018002       -119.57     
                   0.98832       -10.452       0.084953        83.59       0.018603       -119.41      0.046084        75.457     
                   0.046261        76.002      0.018483       -120.14      0.087566        73.371      0.98602       -10.798      
                   0.018316       -120.42      0.04589        75.576       0.98683       -10.729       0.084586         82.3      
 
1.75e+008          0.088153        72.983      0.98745       -11.132       0.049444        74.708      0.019262       -121.84     
                   0.98483       -11.102       0.093704        78.96       0.01942       -121.39       0.0492        75.313       
                   0.048849         74.93      0.019391       -121.11      0.090171        72.421      0.98745       -11.484      
                   0.019165       -121.02      0.04966         75.12       0.98617       -11.439       0.09374        78.90       
 
1.875e+008         0.092322        72.797      0.98966       -11.945       0.052514        74.253      0.02024       -122.86      
                   0.98868       -12.028       0.095113        79.52       0.020068       -123.26      0.052612        74.488     
                   0.052663        73.874      0.02029       -122.93       0.094278        72.281      0.98957       -12.349      
                   0.020014       -122.03      0.052579         74.53      0.98982       -12.266       0.096072        80.01      
 
2e+008             0.093951        72.036      0.9888        -12.75        0.055828        73.249      0.021157        -124.7     
                   0.98614       -12.589       0.097147        78.87       0.0212       -124.12        0.055936          73.8     
                   0.055654        73.478      0.02118       -124.16       0.09543         71.43       0.98907       -13.102      
                   0.021224       -124.74      0.056082        73.677      0.98588       -12.954       0.098861        78.98      
 
2.125e+008         0.094927        70.519      0.98775       -13.366       0.059044        72.653      0.02179        -125.8      
                   0.98725        -13.38       0.094104         80.6       0.022065       -124.78      0.059435        73.282     
                   0.059063        73.046      0.021825       -125.18      0.09712        70.171       0.98965       -13.761      
                   0.021559       -125.58      0.059177        73.241      0.98791       -13.556       0.098307        79.74      
 
2.25e+008          0.094815         69.23      0.98923       -14.131       0.062074        71.876      0.022428       -127.14     
                   0.98714       -14.071       0.093976        78.64       0.022627       -126.01      0.062262        72.555     
                   0.062431        72.001      0.02267       -126.77       0.09694        68.451       0.98907        -14.44      
                   0.022506       -126.79      0.062371        72.587      0.98976       -14.466       0.095174        79.41      
 
2.375e+008         0.096437        68.917      0.98596       -14.828       0.065312        71.276      0.023237       -128.37     
                   0.9854       -15.079        0.092895        78.39       0.023406       -127.23      0.065344        71.688     
                   0.064872        71.141      0.023281       -127.43      0.098709        68.013      0.98426       -15.341      
                   0.02299       -128.52       0.065786        71.857      0.98655       -15.336       0.096722        78.09      
 
2.5e+008           0.095159        66.613      0.98386       -15.497       0.068297        70.454      0.023806       -128.82     
                   0.98192       -15.396       0.091986        78.63       0.023859       -128.87      0.068329        71.286     
                   0.068047        70.539      0.023781       -128.53      0.098112        65.881      0.98467       -15.934      
                   0.023894       -129.31      0.068391        71.482      0.98229       -15.863       0.092557        78.34      
 
2.625e+008         0.092942        66.503      0.98384       -16.266       0.071521        69.787      0.024364        -129.7     
                   0.98433       -16.262       0.090834          80.       0.024808       -129.21      0.071843        70.767     
                   0.071614        70.081      0.024518       -129.34      0.095177        65.859      0.98386       -16.696      
                   0.024575       -130.22      0.071646        70.608      0.98667       -16.636       0.092805        79.96      
 
2.75e+008          0.091405        65.294      0.98515       -16.853       0.074818        69.193      0.025254        -130.9     
                   0.98433       -17.001       0.092937        79.80       0.025252       -130.32      0.074825        70.086     
                   0.074624        69.296      0.025192       -130.52      0.093791        64.497      0.9848       -17.342       
                   0.025153       -131.27      0.075127        70.005      0.98504       -17.451       0.093942        80.13      
 
2.875e+008         0.087475        63.251      0.98269       -17.726       0.077801         68.37      0.025579       -133.17     
                   0.98371       -17.578       0.090478        78.08       0.025724       -132.79      0.077811        69.198     
                   0.077993        68.486      0.025961       -133.45      0.090928        62.682      0.98269       -18.278      
                   0.025553       -133.74      0.077794        69.382      0.9828       -18.059        0.093508         77.4      
 
3e+008             0.083942         63.87      0.98495       -18.371       0.0809        67.768        0.024706       -133.75     
                   0.98418       -18.388       0.087348         76.6       0.024634       -132.74      0.080997        68.555     
                   0.080857         67.63      0.024823       -132.77      0.086594        62.968      0.98404       -18.814      
                   0.024575       -133.39      0.08104         68.59       0.98444       -18.746       0.08852        76.02       
 
3.125e+008         0.081121        63.354      0.98502       -19.183       0.083577         66.99      0.025239       -132.37     
                   0.98408       -19.133       0.084266        74.98       0.025049       -132.36      0.084073        68.025     
                   0.083749         67.12      0.025388       -132.37      0.083943        62.831      0.98527       -19.583      
                   0.02521       -132.64       0.084115        68.163      0.98551       -19.574       0.084854        75.25      
 
3.25e+008          0.076758        61.679      0.98316       -20.007       0.086813        66.425      0.025672       -132.67     
                   0.98531       -19.887       0.076699        74.26       0.025378       -132.06      0.086802        67.543     
                   0.086667        66.545      0.025442       -132.22      0.079978        61.391      0.98391       -20.485      
                   0.02546        -132.4       0.087276         67.59      0.98352       -20.495       0.078594        73.92      
 
3.375e+008         0.073506        61.637      0.98312        -20.69       0.089948        65.858      0.026045       -132.47     
                   0.98278       -20.618       0.071618        74.35       0.026075       -131.85      0.09044        66.805      
                   0.089763        66.002      0.025909       -131.73      0.076787        61.286      0.98434       -21.234      
                   0.02595       -132.68       0.090341        66.928      0.98338        -21.09       0.074865        73.36      
 
3.5e+008           0.068821         59.24      0.98381       -21.448       0.092723        65.261      0.026354       -131.97     
                   0.98246        -21.34       0.065193        72.72       0.026494       -131.83      0.093387        66.218     
                   0.093043        65.316      0.026424       -131.63      0.072313        59.367      0.98371       -21.929      
                   0.026172       -132.26      0.093371        66.439      0.98242       -21.769       0.06855        71.92       
 
3.625e+008         0.063647        57.868      0.98351       -22.062       0.096259        64.715      0.026881       -132.14     
                   0.98284       -22.343       0.05832        73.38        0.02694       -130.92       0.096971        65.568     
                   0.096101        64.499      0.02698       -131.51       0.067196        58.029      0.98296       -22.625      
                   0.026711       -132.26      0.096837        65.394      0.98331       -22.811       0.062433        72.13      
 
3.75e+008          0.057877        55.149      0.9839       -22.974        0.099202        63.813      0.027102       -131.91     
                   0.98213       -23.001       0.055391         71.5       0.027214       -130.98      0.099646        64.679     
                   0.099406        63.773      0.027244       -131.13      0.061439        55.744      0.9834       -23.532       
                   0.026913       -131.82      0.09971        64.745       0.98285       -23.521       0.058729         70.3      
 
3.875e+008         0.051781        53.616      0.98208       -23.787       0.10212         63.06       0.027361       -131.73     
                   0.98215       -23.743       0.053825        72.58       0.027678       -130.75      0.10255        64.093      
                   0.10223        63.223       0.027719        -130.9      0.055384        54.447      0.97969       -24.393      
                   0.027313       -131.38      0.1028        64.144        0.98176       -24.369       0.056797        70.74      
 
4e+008             0.045683        50.744      0.98221       -24.381       0.1053        62.373        0.027728       -131.15     
                   0.98322       -24.479       0.042432         74.4       0.027981          -130      0.10569        63.518      
                   0.10511        62.306       0.027994       -130.24      0.049139        52.313      0.98346       -24.919      
                   0.02758       -130.74       0.10557        63.398       0.98253       -25.021       0.046301        71.49      
 
4.125e+008         0.040167        46.075      0.98168       -25.235       0.108        61.663         0.027999        -130.2     
                   0.98163        -25.24       0.036333        72.72       0.028475       -129.69      0.10862        62.839      
