!!!!!!!!!!!!!!!!!!!!!!!!!!!!!!!!!!!!!!!!!!!!!!!!!!!!!!!!!!!!!!!!!!!!!!!!!!!
!                        COPYRIGHT, TYCO ELECTRONICS                      !
!                     ALL INTERNATIONAL RIGHTS RESERVED                   !
!!!!!!!!!!!!!!!!!!!!!!!!!!!!!!!!!!!!!!!!!!!!!!!!!!!!!!!!!!!!!!!!!!!!!!!!!!!
!!!!!!!!!!!!!!!!!!!!!!!!!!!!!!!!!!!!!!!!!!!!!!!!!!!!!!!!!!!!!!!!!!!!!!!!!!!
!! These models are covered by a licensing agreement that restricts       !
!! their use and distribution.  If you have questions about the           !
!! restrictions, contact the appropriate organization within              !
!! your company                                                           !
!!!!!!!!!!!!!!!!!!!!!!!!!!!!!!!!!!!!!!!!!!!!!!!!!!!!!!!!!!!!!!!!!!!!!!!!!!!
! THESE MODELS REPRESENT TEC/AMP CONNECTORS ONLY. DUE TO INTERNAL         !
! DESIGN AND MATERIALS, THEY SHOULD NOT BE USED FOR PRODUCTS              !
! MANUFACTURED BY COMPANIES OTHER THAN AMP.                               !
!                                                                         !
! CHECK WITH TEC/AMP FOR THE MOST CURRENT MODEL SET                       !
!                                                                         !
! FOR MORE INFORMATION, EMAIL: modeling@tycoelectronics.com               !
!                       URL:   http://www.amp.com/simulation/             !
!                                                                         !
! PRODUCT INFORMATION CENTER:  1-800-522-6752                             !
!!!!!!!!!!!!!!!!!!!!!!!!!!!!!!!!!!!!!!!!!!!!!!!!!!!!!!!!!!!!!!!!!!!!!!!!!!!
! Each file is named 'Port1Port2Port3Port4.s4p', where port 1 and         !
! port 3 are input ports and port 2 and port 4 are output ports.          !
!                                                                         !
! For example, Ba05Da05Bb05Db05.s4p would have port 1 at backplane (B) a5 !
! port 2 at daughtercard (D) a5, port 3 at backplane (B) b5,              !
! and port 4 at daughtercard (D) b5.                                      !
!                                                                         !
! Keep in mind that each file is the throughput for                       !
! footprint-connector-footprint.  Test board traces are calibrated out,   !
! but the s-parameters include a signal path that goes through the        !
! connector footprint in a given thickness board, the connector itself,   !
! and the connector footprint in a second board.                          !
!                                                                         !
! A zero Hertz interpolation data point has been added for convenience.   !
!!!!!!!!!!!!!!!!!!!!!!!!!!!!!!!!!!!!!!!!!!!!!!!!!!!!!!!!!!!!!!!!!!!!!!!!!!!
!
! Connector: Z-DOK, 0.050" PITCH,  4 ROW, RIGHT ANGLE PLUG TO RIGHT ANGLE RECEPTACLE
! Pins     : C3C4
! Board    : 0.093" Thick FR4
! Filename : BC03DC03BC04DC04.s4p
! Rev Date : 9/15/02
! Status   : VALIDATED MEASURED MODEL
! Structure: 4 Port S-parameter
! Rating   : 50 MHz to 10.05 GHz
! Transform Limits : 50 ps Min. Time Resolution 1/(2*MaxFreq)
!
!
# HZ  S  MA R  50 
!
! FREQ                  S11                         S12                         S13                         S14
!                       S21                        S22                         S23                         S24
!                       S31                         S32                         S33                         S34
!                       S41                         S42                         S43                         S44
!                  MAG       ANG               MAG       ANG               MAG       ANG               MAG       ANG
00000000           0.0000    0.000             1.0000    0.000             0.0000    0.000             0.0000    0.000           
                   1.0000    0.000             0.0000    0.000             0.0000    0.000             0.0000    0.000           
                   0.0000    0.000             0.0000    0.000             0.0000    0.000             1.0000    0.000           
                   0.0000    0.000             0.0000    0.000             1.0000    0.000             0.0000    0.000  

5e+007             0.031825          74.1      0.99331       -3.7239       0.019637        80.964      0.0061134       -107.25    
                   0.99241        -3.406       0.036343        61.44       0.0046396       -52.949     0.020755        82.834     
                   0.02101        76.874       0.0049408       -97.788     0.0315         77.36        0.99192       -3.5207      
                   0.0061396       -134.96     0.019251        82.677      0.99576       -3.3312       0.032473        67.35      
 
6.25e+007          0.044242        81.062      0.99244       -5.6576       0.025335        83.559      0.0073052       -106.78    
                   0.99285       -5.6058       0.042761        83.43       0.0044639       -121.22     0.023934        80.738     
                   0.02509        92.662       0.0075102       -118.19     0.045463        80.724      0.99484       -5.5168      
                   0.0037757       -103.48     0.027677        82.486      0.99485       -5.7552       0.045291        88.57      
 
7.5e+007           0.045857        79.426      0.99662       -6.4278       0.03057        81.908       0.0075794       -113.11    
                   0.9934       -6.6613        0.045343        101.5       0.00863       -113.28       0.029953        82.017     
                   0.030252        84.326      0.0083147        -121.4     0.047363        80.679      0.99868       -6.3827      
                   0.010072       -124.33      0.029883        79.091      0.99347       -6.3845       0.056398        94.34      
 
8.75e+007          0.056476        83.757      0.99762       -7.4631       0.03451        80.928       0.0095258       -116.61    
                   0.99441         -7.31       0.061861        96.12       0.0087303       -118.92     0.035102        80.088     
                   0.032831        78.645      0.010225       -119.23      0.056103        83.176      0.99737       -7.4066      
                   0.008448       -106.58      0.033738        78.905      0.99456       -7.4329       0.061024        92.98      
 
1e+008             0.061466        78.545      0.99291       -8.4803       0.040161        78.633      0.010138       -119.18     
                   0.99177       -8.5383       0.062641        82.02       0.010303       -117.45      0.040216        79.355     
                   0.038965        78.448      0.010447       -122.76      0.064819        77.975      0.99327       -8.5591      
                   0.010273       -121.07      0.040124        80.207      0.99112       -8.5742       0.064128        80.51      
 
1.125e+008         0.06665        78.595       0.99529       -9.5877       0.043744        78.057      0.011315       -126.88     
                   0.99214       -9.5075       0.070602        81.32       0.01148       -125.28       0.044208        77.841     
                   0.043576        77.353      0.011414       -122.82      0.068422         78.64      0.99038       -9.6034      
                   0.011309          -124      0.043847        77.775      0.99242       -9.4548       0.070099        82.89      
 
1.25e+008          0.076653        74.884      0.99208       -10.267       0.048305        76.854      0.012483        -126.1     
                   0.99032       -10.551       0.073917        76.69       0.012034       -125.51      0.048488        77.478     
                   0.048435        76.713      0.013002       -125.24      0.079401        74.373      0.98826       -10.587      
                   0.012298       -126.93      0.048134         76.55      0.98924       -10.717       0.073873        77.26      
 
1.375e+008         0.081839        73.659      0.98696       -11.812       0.052552        75.458      0.013128       -128.85     
                   0.98713       -11.683       0.083643        81.70       0.013315       -127.85      0.052713        75.431     
                   0.052216        76.218      0.013295       -131.56      0.083858        73.139      0.9869       -11.932       
                   0.013879       -129.02      0.052795        75.834      0.98611       -11.764       0.086379         79.6      
 
1.5e+008           0.085235         72.76      0.98891       -12.569       0.05733        75.078       0.013906       -131.66     
                   0.98571       -12.745       0.081606        79.40       0.014467       -133.97      0.057481        75.134     
                   0.056826        74.895      0.014114       -133.46      0.087676        71.833      0.98696       -12.598      
                   0.014235       -131.99      0.057315         74.41      0.98514       -12.822       0.084609        80.07      
 
1.625e+008         0.087654        71.037      0.98318       -13.725       0.061383        73.619      0.014914       -135.62     
                   0.9855       -13.627        0.086503        77.24       0.014618       -135.76      0.061835        74.029     
                   0.061374         73.71      0.015053       -135.48      0.09089        69.977       0.98629       -13.648      
                   0.015399       -134.95      0.061623        73.703      0.98411       -13.564       0.088627        77.58      
 
1.75e+008          0.088018        69.406      0.98488       -14.404       0.066035        73.339      0.015633       -137.71     
                   0.98371       -14.554       0.093397        74.39       0.015281       -139.25      0.06624        73.003      
                   0.06593        72.955       0.015448       -137.91      0.092353        69.347      0.98285       -14.649      
                   0.01559       -137.37       0.066396        72.958      0.98242       -14.588       0.097459        74.45      
 
1.875e+008         0.091089        69.327      0.98597       -15.423       0.070552        71.965      0.016028       -139.67     
                   0.98657       -15.522       0.092524        74.29       0.016141       -141.07      0.070845        71.964     
                   0.070639        72.199      0.016163       -141.63      0.095389        69.072      0.98477       -15.582      
                   0.015627       -141.27      0.070678        72.446      0.98346       -15.507       0.097682        74.36      
 
2e+008             0.091483        68.228      0.98534       -16.513       0.075054        71.233      0.016459        -142.2     
                   0.98253       -16.316       0.095649        75.31       0.016506       -143.06      0.075114        71.435     
                   0.074694        71.411      0.016516       -144.25      0.096149        68.345      0.98468       -16.615      
                   0.016821       -141.71      0.074923        71.429      0.98194       -16.388       0.097139         75.2      
 
2.125e+008         0.09058        66.569       0.98458       -17.318       0.079478        70.289      0.016821       -144.77     
                   0.9843       -17.398        0.092351        76.09       0.017138          -147      0.079673        70.494     
                   0.079656        70.504      0.016647       -146.05      0.095176        66.382      0.98399         -17.5      
                   0.016949       -144.71      0.079526        70.512      0.98412       -17.323       0.098393        75.47      
 
2.25e+008          0.08944        64.808       0.98461       -18.312       0.084154         69.43      0.017041       -147.67     
                   0.98541       -18.368       0.085735        73.57       0.016844       -149.32      0.083646        69.659     
                   0.084207        69.549      0.016984       -148.73      0.094407        65.079      0.98456       -18.427      
                   0.017347       -146.74      0.083763        69.444      0.98367       -18.428       0.091054         73.3      
 
2.375e+008         0.089496        64.121      0.98208       -19.301       0.088488        68.592      0.017284       -149.54     
                   0.98246       -19.477       0.086902        74.58       0.017075       -152.31      0.087948        68.857     
                   0.088279        68.382      0.016987       -151.31      0.094589        64.605      0.98111       -19.516      
                   0.017148       -149.81      0.087829        68.461      0.97935       -19.626       0.091955        73.95      
 
2.5e+008           0.087026        62.134      0.98116       -20.129       0.092709        67.567      0.017308       -151.68     
                   0.9793       -20.174        0.082696        71.13       0.017045       -153.26      0.092157        67.928     
                   0.092711        67.812      0.016828       -153.35      0.092236        62.443      0.98011       -20.355      
                   0.017328       -151.56      0.092158        68.143      0.97732       -20.268       0.08907        70.04       
 
2.625e+008         0.08202        61.559       0.9803       -21.123        0.097516        66.777      0.017265       -152.18     
                   0.9825         -21.1        0.079443        75.94       0.016669       -155.02      0.096678        67.251     
                   0.097825        66.786      0.016541       -155.16      0.087603        62.071      0.97978       -21.242      
                   0.017672       -152.98      0.096851        67.148      0.98093       -21.258       0.085051        74.13      
 
2.75e+008          0.079393        60.707      0.98267       -21.949       0.10288        65.674       0.017598        -153.6     
                   0.98052       -22.091       0.081614        74.12       0.016535       -156.37      0.10125        66.255      
                   0.10288        65.674       0.016668       -156.19      0.08455        61.391       0.98241       -22.173      
                   0.017431       -154.73      0.1008        66.289        0.98209       -22.213       0.08557        73.38       
 
2.875e+008         0.074853        58.799      0.97963       -23.008       0.1078        64.472        0.017381       -155.78     
                   0.98012       -23.016       0.078779        71.77       0.016239       -158.93      0.10476        65.346      
                   0.10779        64.449       0.01633       -157.95       0.079993        59.911      0.97836       -23.252      
                   0.017569       -155.04      0.10505        65.609       0.98033       -23.181       0.082902        70.33      
 
3e+008             0.071065        58.866      0.98012       -23.912       0.11313        62.827       0.017919       -156.95     
                   0.9797       -24.001        0.073535        68.15       0.015749        -160.2      0.10963        64.553      
                   0.11282        62.723       0.015855       -159.97      0.075509        60.004      0.98023        -24.05      
                   0.018012       -156.88      0.10962        64.494       0.98127       -24.189       0.078931        69.54      
 
3.125e+008         0.067245        57.559      0.9807       -25.116        0.12022        59.549       0.01933       -158.36      
                   0.97861       -25.193       0.068908        66.92       0.015396       -160.86      0.11362        63.612      
                   0.12014        59.936       0.015065       -160.36      0.070703        59.618      0.98098       -25.177      
                   0.019164       -158.83      0.11377        63.502       0.97938        -25.18       0.072126        67.13      
 
3.25e+008          0.060375        52.042      0.97421       -26.042       0.11148        52.298       0.021986       -176.85     
                   0.97484       -25.974       0.057591        58.80       0.014638       -160.25      0.118        62.766        
                   0.11234         52.22       0.014608       -160.24      0.065119        58.071      0.9783       -26.241       
                   0.022116       -176.41      0.11812        62.799       0.98062       -26.214       0.062707        63.61      
 
3.375e+008         0.051749        55.175      0.97894       -26.821       0.1107        60.299        0.012133        174.26     
                   0.97834       -26.938       0.049328        64.81       0.014218       -161.04      0.12235        61.816      
                   0.11018        60.378       0.014117        -160.2      0.060124        57.623      0.97796       -27.075      
                   0.012222        174.01      0.12206        61.793       0.97658       -27.145       0.057806        63.59      
 
3.5e+008           0.046932        53.824      0.97857        -27.83       0.11878        60.718       0.010991       -169.12     
                   0.97726       -27.757       0.042392        59.85       0.013451       -159.24      0.12606        60.975      
                   0.11886        60.695       0.013542       -159.17      0.053871        55.484      0.97828       -28.163      
                   0.010954       -167.63      0.12618        60.941       0.97841       -28.189       0.04997        60.76       
 
3.625e+008         0.04042        51.907       0.97844       -28.739       0.12509        59.782       0.011239       -162.08     
                   0.97786       -28.901       0.034978        63.23       0.012774       -157.63      0.1306        60.121       
                   0.12485        59.588       0.012777       -157.76      0.046796        53.806      0.97744       -29.033      
                   0.01122       -162.25       0.13039        59.977       0.97788       -29.211       0.042892        62.50      
 
3.75e+008          0.032943        48.272      0.97777       -29.835       0.12821        58.535       0.010341       -160.99     
                   0.97833       -29.846       0.031607        57.50       0.012338       -154.76      0.13443        58.928      
                   0.12817        58.539       0.012269       -154.56      0.039727        51.168      0.97759       -30.075      
                   0.010297       -161.67      0.13469        58.919       0.97705       -30.124       0.038329        57.91      
 
3.875e+008         0.02549        45.512       0.97582       -30.953       0.13282        58.203       0.0096312       -151.44    
                   0.97735       -30.859       0.027393        61.75       0.011908       -151.11      0.13819        58.119      
                   0.13324        58.203       0.011788       -150.72      0.031815        49.023      0.97515       -31.127      
                   0.0097799       -151.89     0.13834        58.114       0.97757        -31.19       0.033364        60.12      
 
4e+008             0.01905        39.167       0.97734       -31.739       0.13807        57.284       0.0095481       -144.06    
                   0.97576       -31.807       0.014173        67.16       0.01157       -146.38       0.14271        57.228      
                   0.13786        57.468       0.011504       -146.28      0.024876         44.59      0.97589       -31.996      
                   0.0096826       -143.73     0.14234        57.243       0.97643       -32.175       0.021042        61.54      
 
4.125e+008         0.012567        22.355      0.9744       -32.915        0.14204        56.313       0.0098614       -136.64    
                   0.97505       -32.954       0.0066423        64.57      0.011623       -140.73      0.14635        56.148      
