!!!!!!!!!!!!!!!!!!!!!!!!!!!!!!!!!!!!!!!!!!!!!!!!!!!!!!!!!!!!!!!!!!!!!!!!!!!
!                        COPYRIGHT, TYCO ELECTRONICS                      !
!                     ALL INTERNATIONAL RIGHTS RESERVED                   !
!!!!!!!!!!!!!!!!!!!!!!!!!!!!!!!!!!!!!!!!!!!!!!!!!!!!!!!!!!!!!!!!!!!!!!!!!!!
!!!!!!!!!!!!!!!!!!!!!!!!!!!!!!!!!!!!!!!!!!!!!!!!!!!!!!!!!!!!!!!!!!!!!!!!!!!
!! These models are covered by a licensing agreement that restricts       !
!! their use and distribution.  If you have questions about the           !
!! restrictions, contact the appropriate organization within              !
!! your company                                                           !
!!!!!!!!!!!!!!!!!!!!!!!!!!!!!!!!!!!!!!!!!!!!!!!!!!!!!!!!!!!!!!!!!!!!!!!!!!!
! THESE MODELS REPRESENT TEC/AMP CONNECTORS ONLY. DUE TO INTERNAL         !
! DESIGN AND MATERIALS, THEY SHOULD NOT BE USED FOR PRODUCTS              !
! MANUFACTURED BY COMPANIES OTHER THAN AMP.                               !
!                                                                         !
! CHECK WITH TEC/AMP FOR THE MOST CURRENT MODEL SET                       !
!                                                                         !
! FOR MORE INFORMATION, EMAIL: modeling@tycoelectronics.com               !
!                       URL:   http://www.amp.com/simulation/             !
!                                                                         !
! PRODUCT INFORMATION CENTER:  1-800-522-6752                             !
!!!!!!!!!!!!!!!!!!!!!!!!!!!!!!!!!!!!!!!!!!!!!!!!!!!!!!!!!!!!!!!!!!!!!!!!!!!
! Each file is named 'Port1Port2Port3Port4.s4p', where port 1 and         !
! port 3 are input ports and port 2 and port 4 are output ports.          !
!                                                                         !
! For example, Ba05Da05Bb05Db05.s4p would have port 1 at backplane (B) a5 !
! port 2 at daughtercard (D) a5, port 3 at backplane (B) b5,              !
! and port 4 at daughtercard (D) b5.                                      !
!                                                                         !
! Keep in mind that each file is the throughput for                       !
! footprint-connector-footprint.  Test board traces are calibrated out,   !
! but the s-parameters include a signal path that goes through the        !
! connector footprint in a given thickness board, the connector itself,   !
! and the connector footprint in a second board.                          !
!                                                                         !
! A zero Hertz interpolation data point has been added for convenience.   !
!!!!!!!!!!!!!!!!!!!!!!!!!!!!!!!!!!!!!!!!!!!!!!!!!!!!!!!!!!!!!!!!!!!!!!!!!!!
!
! Connector: Z-DOK, 0.050" PITCH,  4 ROW, RIGHT ANGLE PLUG TO RIGHT ANGLE RECEPTACLE
! Pins     : D3D4
! Board    : 0.093" Thick FR4
! Filename : BD03DD03BD04DD04.s4p
! Rev Date : 9/15/02
! Status   : VALIDATED MEASURED MODEL
! Structure: 4 Port S-parameter
! Rating   : 50 MHz to 10.05 GHz
! Transform Limits : 50 ps Min. Time Resolution 1/(2*MaxFreq)
!
!
# HZ  S  MA R  50 
!
! FREQ                  S11                         S12                         S13                         S14
!                       S21                        S22                         S23                         S24
!                       S31                         S32                         S33                         S34
!                       S41                         S42                         S43                         S44
!                  MAG       ANG               MAG       ANG               MAG       ANG               MAG       ANG
00000000           0.0000    0.000             1.0000    0.000             0.0000    0.000             0.0000    0.000           
                   1.0000    0.000             0.0000    0.000             0.0000    0.000             0.0000    0.000           
                   0.0000    0.000             0.0000    0.000             0.0000    0.000             1.0000    0.000           
                   0.0000    0.000             0.0000    0.000             1.0000    0.000             0.0000    0.000  

5e+007             0.029697        65.264      0.99213       -4.4493       0.024184        82.855      0.0077346       -96.876    
                   0.99863       -4.0831       0.039047        81.02       0.0064785       -67.067     0.02497        84.945      
                   0.021113         84.76      0.0073485       -110.36     0.023096         60.77      0.99648       -4.7185      
                   0.0067559       -104.87     0.023101        82.299      0.99452       -4.2693       0.032567        55.36      
 
6.25e+007          0.047138        80.182      0.99649       -6.8049       0.032403        79.534      0.009633        -105.2     
                   0.99278       -6.5059       0.04453         82.8        0.0103       -128.57        0.032314        80.713     
                   0.032348        75.452      0.0095034       -114.68     0.04483        78.624       0.99652       -6.8789      
                   0.0076955       -122.53     0.031389        86.851      0.99345       -6.8187       0.045868         87.1      
 
7.5e+007           0.044856         79.97      1.0001        -7.691        0.036818        79.617      0.011356       -113.92     
                   0.99628       -7.8769       0.058335        93.60       0.011711        -105.7      0.03807         80.21      
                   0.038871        78.638      0.0116       -119.99        0.04562        76.425       0.99701       -7.9773      
                   0.010858       -117.28      0.038756        82.216      0.99302       -8.0096       0.054237        93.65      
 
8.75e+007          0.058785        82.533      0.99715       -8.9708       0.04436        78.959       0.013884       -117.55     
                   0.99543       -8.8619       0.065201        97.77       0.01368       -108.57       0.043961        78.807     
                   0.042032        78.087      0.012422       -115.27      0.056726        81.132      0.99557       -9.1791      
                   0.014452       -117.42      0.042174        77.181      0.99495       -8.9908       0.066697         97.8      
 
1e+008             0.067695        75.377      0.99144       -10.359       0.049285        77.279      0.015033       -121.39     
                   0.99051       -10.339       0.069243        84.59       0.014747       -120.45      0.049631        77.098     
                   0.04952        77.941       0.0146       -119.72        0.067064        73.867      0.99028       -10.422      
                   0.013609       -117.95      0.051306        76.731      0.98937       -10.419       0.064195         81.8      
 
1.125e+008         0.072762        74.654      0.98973       -11.627       0.055276        75.582      0.016171       -122.43     
                   0.99375       -11.618       0.075062         83.5       0.015395       -126.34      0.055375        75.564     
                   0.055585        75.355      0.016351       -124.87      0.07166        73.514       0.98735       -11.832      
                   0.01629       -125.07       0.055454        76.328      0.99144       -11.808       0.070564        83.66      
 
1.25e+008          0.083729        71.394      0.98818       -12.608       0.061015         74.26      0.0179       -127.46       
                   0.98821       -12.807       0.078166        75.09       0.016574       -127.52      0.060594        74.642     
                   0.060104        74.623      0.017527       -128.23      0.08338        69.943       0.98857       -13.042      
                   0.017469       -126.98      0.061211        74.018      0.9876       -13.128        0.078668        76.11      
 
1.375e+008         0.090453        69.459      0.98388       -14.378       0.066164        72.803      0.018832       -130.29     
                   0.9849       -14.308        0.092355        77.95       0.01819       -132.47       0.066634        73.041     
                   0.066222        72.258      0.01837       -130.24       0.087939        68.053      0.98381        -14.66      
                   0.018936       -129.07      0.066803        73.092      0.98501        -14.54       0.091808        79.00      
 
1.5e+008           0.093975        68.192      0.98585       -15.255       0.071899        71.329      0.019904       -132.71     
                   0.98327       -15.499       0.090933        78.39       0.01967       -134.68       0.071984        72.272     
                   0.071333        71.162      0.019919       -134.82      0.092657        66.863      0.98491       -15.565      
                   0.019901       -134.33      0.072192        71.956      0.98317        -15.73       0.089848        78.66      
 
1.625e+008         0.097661        65.809      0.98214       -16.683       0.077102        70.301      0.021064       -136.87     
                   0.98286        -16.35       0.094416        77.38       0.02072       -135.91       0.07745        70.471      
                   0.076632        70.242      0.020523       -136.65      0.095945        64.161      0.98174       -16.878      
                   0.020669        -135.4      0.077386        70.673      0.98203       -16.719       0.093241        78.15      
 
1.75e+008          0.097884        64.334      0.97999       -17.649       0.082456        69.375      0.021842       -139.03     
                   0.97966       -17.569       0.10437         71.5        0.021326       -139.85      0.083104        70.036     
                   0.082435        69.384      0.021207       -139.32      0.096006        62.472      0.98003       -17.993      
                   0.021733        -138.9      0.083159        69.787      0.9813       -17.928        0.10312        73.97       
 
1.875e+008         0.10198        64.211       0.98433       -18.859       0.088119        68.121      0.022544       -141.68     
                   0.98255       -18.896       0.10437        73.01        0.022258       -142.72      0.088895        68.615     
                   0.088598        68.477      0.021945       -142.29      0.099847        62.297      0.98315       -19.297      
                   0.022769       -141.03      0.08874        68.595       0.98407       -19.359       0.10225        73.75       
 
2e+008             0.10231         62.99       0.9823       -20.099        0.093803        67.018      0.023132          -144     
                   0.98093       -19.898       0.10458        71.92        0.022597       -144.85      0.093977        67.486     
                   0.093564        67.346      0.022601       -144.68      0.10039        60.803       0.98107       -20.433      
                   0.023465       -143.69      0.093735        67.796      0.98201       -20.335       0.10249        72.89       
 
2.125e+008         0.10145        60.653       0.98131       -21.114       0.099395        65.865      0.023571       -146.45     
                   0.98142       -21.105       0.10403        72.62        0.023182        -147.4      0.099815        66.523     
                   0.099077        66.048      0.022776       -147.21      0.099694        58.395      0.98008       -21.557      
                   0.023397       -145.97      0.099518        66.731      0.97981       -21.511       0.10212        73.97       
 
2.25e+008          0.10038        58.783       0.98187       -22.355       0.10398        64.798       0.024079       -148.58     
                   0.98249       -22.363       0.096958        70.37       0.023193       -149.85      0.1047        65.476       
                   0.10427        64.879       0.023124       -150.26      0.098845        56.255      0.98032       -22.755      
                   0.023843       -148.11      0.10478        65.437       0.97931       -22.753       0.093548        72.22      
 
2.375e+008         0.10084        58.145       0.97721       -23.587       0.10927        63.752       0.024006       -150.22     
                   0.97682       -23.593       0.097377        70.46       0.023493       -152.46      0.10984         64.38      
                   0.1092        63.628        0.023285       -152.08      0.099562        55.588      0.97772       -23.996      
                   0.024095       -150.34      0.10981        64.293       0.97709       -24.203       0.093895         72.8      
 
2.5e+008           0.098946        56.001      0.9761       -24.634        0.11416          62.5       0.024039       -151.65     
                   0.97423       -24.617       0.09559        67.18        0.02385       -154.51       0.11478        63.168      
                   0.11402        62.746       0.023371       -153.89      0.097053        53.403      0.97487       -25.071      
                   0.024302       -152.28      0.11498        63.408       0.97355       -25.002       0.092177        68.94      
 
2.625e+008         0.094089        55.145      0.97452         -25.8       0.11971        61.694       0.024313       -153.81     
                   0.97694       -25.822       0.091545        71.09       0.023324       -155.86      0.1201        62.413       
                   0.1196        61.584        0.023262       -155.86      0.092235        52.366      0.97434        -26.26      
                   0.024266        -153.6      0.12019        62.254       0.9752       -26.347        0.088714        72.37      
 
2.75e+008          0.091589        54.146      0.97778       -26.916       0.12531        60.476       0.02426       -155.75      
                   0.97579        -27.03       0.091971        69.01       0.023439       -157.39      0.12571         61.22      
                   0.12535        60.478       0.023454       -157.59      0.089959        50.962      0.97445       -27.379      
                   0.024289       -155.38      0.12569         61.12       0.97598       -27.506       0.089696        69.12      
 
2.875e+008         0.087091        52.075      0.97549        -28.21       0.13        59.116          0.024289       -157.63     
                   0.97498       -28.108       0.088652        66.99       0.02337       -159.35       0.13059        59.933      
                   0.13014         59.15       0.023074       -159.87      0.086037        48.435      0.97229       -28.774      
                   0.024316       -157.19      0.13099        59.897       0.97389       -28.651       0.088289        66.93      
 
3e+008             0.08351        51.687       0.97519       -29.238       0.13478        58.056       0.023439       -160.25     
                   0.97397       -29.371       0.086384        63.52       0.022668       -162.06      0.13541        58.785      
                   0.13471        58.005       0.022622       -162.41      0.081492        47.111      0.97085       -29.717      
                   0.02379       -160.13       0.13527         58.83       0.97268       -29.854       0.08267        63.09       
 
3.125e+008         0.079086        51.234      0.97475       -30.531       0.13885        57.173       0.022396       -160.63     
                   0.97303       -30.526       0.081816        62.32       0.021107       -163.09      0.13966        57.724      
                   0.13887        57.157       0.02119       -163.01       0.075603        46.816      0.97419       -30.958      
                   0.02228       -160.58       0.13973        57.986       0.9714       -30.977        0.076887        62.92      
 
3.25e+008          0.074226        49.356      0.97173       -31.817       0.14402        56.206       0.022016       -159.15     
                   0.9747       -31.704        0.070699         56.9       0.020652        -161.2      0.1449         57.01       
                   0.14461        56.214       0.020794       -161.22      0.071457        45.145      0.97103       -32.327      
                   0.022117        -159.7      0.14497        56.915       0.97376       -32.151       0.066681        59.73      
 
3.375e+008         0.070278        48.655      0.97288       -32.934       0.14972        54.899       0.021785       -158.59     
                   0.97174       -32.967       0.068424        58.36       0.020373        -160.7      0.15045        55.811      
                   0.14927        54.967       0.020295       -161.06      0.068014        44.043      0.97158       -33.448      
                   0.021792       -158.63      0.15036        55.908       0.97103       -33.468       0.064653        61.73      
 
3.5e+008           0.064736        45.824      0.97022       -34.109       0.1541        53.741        0.021411       -158.32     
                   0.97044       -34.009       0.059016        53.54       0.020113       -160.13      0.15492        54.691      
                   0.1542        53.841        0.019915       -160.52      0.063367        40.608      0.96982       -34.671      
                   0.021414       -157.98      0.15502        54.747       0.97009       -34.682       0.056658        56.32      
 
3.625e+008         0.058227        44.151      0.97053       -35.147       0.1592        52.769        0.020782       -156.91     
                   0.97023       -35.341       0.051762        55.16       0.019105       -158.92      0.15981        53.716      
                   0.15894        52.593       0.019093       -158.62      0.056328        38.074      0.9696       -35.673       
                   0.020623       -157.37      0.15984        53.435       0.97003       -35.881       0.048733        57.29      
 
3.75e+008          0.051487          41.6      0.96998       -36.518       0.16366        51.602       0.020515       -154.37     
                   0.96989       -36.484       0.048391        48.66       0.018833       -156.18      0.1648        52.452       
                   0.16375         51.64       0.018719       -156.28      0.049767        35.485      0.96949       -37.094      
                   0.020747       -154.84      0.16477        52.423       0.96868       -37.114       0.045326        51.18      
 
3.875e+008         0.044598        38.943      0.96706         -37.8       0.16839        50.526       0.020474       -151.77     
                   0.9685       -37.674        0.045996        50.47       0.018581       -153.54      0.16905        51.413      
                   0.16872         50.35       0.018496       -153.36      0.043545        31.991      0.9658       -38.338       
                   0.020416       -152.32      0.16944        51.527       0.9683       -38.263        0.043425        53.61      
 
4e+008             0.038007        35.414      0.9701       -38.817        0.17365        49.306       0.020569       -149.32     
                   0.96798       -38.848       0.031228        50.22       0.018523       -149.65      0.17448        50.294      
                   0.17331        49.386       0.018607       -149.21      0.037573        27.117      0.96828       -39.362      
                   0.020642       -149.64      0.17427        50.256       0.96686       -39.476       0.028265        54.34      
 
4.125e+008         0.031447        28.734      0.96596       -40.175       0.1777        48.018        0.020707       -146.53     
                   0.96579       -40.054       0.024057        43.90       0.018736       -146.14      0.17828        49.151      
