!!!!!!!!!!!!!!!!!!!!!!!!!!!!!!!!!!!!!!!!!!!!!!!!!!!!!!!!!!!!!!!!!!!!!!!!!!!
!                        COPYRIGHT, TYCO ELECTRONICS                      !
!                     ALL INTERNATIONAL RIGHTS RESERVED                   !
!!!!!!!!!!!!!!!!!!!!!!!!!!!!!!!!!!!!!!!!!!!!!!!!!!!!!!!!!!!!!!!!!!!!!!!!!!!
!!!!!!!!!!!!!!!!!!!!!!!!!!!!!!!!!!!!!!!!!!!!!!!!!!!!!!!!!!!!!!!!!!!!!!!!!!!
!! These models are covered by a licensing agreement that restricts       !
!! their use and distribution.  If you have questions about the           !
!! restrictions, contact the appropriate organization within              !
!! your company                                                           !
!!!!!!!!!!!!!!!!!!!!!!!!!!!!!!!!!!!!!!!!!!!!!!!!!!!!!!!!!!!!!!!!!!!!!!!!!!!
! THESE MODELS REPRESENT TEC/AMP CONNECTORS ONLY. DUE TO INTERNAL         !
! DESIGN AND MATERIALS, THEY SHOULD NOT BE USED FOR PRODUCTS              !
! MANUFACTURED BY COMPANIES OTHER THAN AMP.                               !
!                                                                         !
! CHECK WITH TEC/AMP FOR THE MOST CURRENT MODEL SET                       !
!                                                                         !
! FOR MORE INFORMATION, EMAIL: modeling@tycoelectronics.com               !
!                       URL:   http://www.amp.com/simulation/             !
!                                                                         !
! PRODUCT INFORMATION CENTER:  1-800-522-6752                             !
!!!!!!!!!!!!!!!!!!!!!!!!!!!!!!!!!!!!!!!!!!!!!!!!!!!!!!!!!!!!!!!!!!!!!!!!!!!
! Each file is named 'Port1Port2Port3Port4.s4p', where port 1 and         !
! port 3 are input ports and port 2 and port 4 are output ports.          !
!                                                                         !
! For example, Ba05Da05Bb05Db05.s4p would have port 1 at backplane (B) a5 !
! port 2 at daughtercard (D) a5, port 3 at backplane (B) b5,              !
! and port 4 at daughtercard (D) b5.                                      !
!                                                                         !
! Keep in mind that each file is the throughput for                       !
! footprint-connector-footprint.  Test board traces are calibrated out,   !
! but the s-parameters include a signal path that goes through the        !
! connector footprint in a given thickness board, the connector itself,   !
! and the connector footprint in a second board.                          !
!                                                                         !
! A zero Hertz interpolation data point has been added for convenience.   !
!!!!!!!!!!!!!!!!!!!!!!!!!!!!!!!!!!!!!!!!!!!!!!!!!!!!!!!!!!!!!!!!!!!!!!!!!!!
!
! Connector: Z-DOK, 0.050" PITCH,  4 ROW, RIGHT ANGLE PLUG TO RIGHT ANGLE RECEPTACLE
! Pins     : F3F4
! Board    : 0.093" Thick FR4
! Filename : BF03DF03BF04DF04.s4p
! Rev Date : 9/15/02
! Status   : VALIDATED MEASURED MODEL
! Structure: 4 Port S-parameter
! Rating   : 50 MHz to 10.05 GHz
! Transform Limits : 50 ps Min. Time Resolution 1/(2*MaxFreq)
!
!
# HZ  S  MA R  50 
!
! FREQ                  S11                         S12                         S13                         S14
!                       S21                        S22                         S23                         S24
!                       S31                         S32                         S33                         S34
!                       S41                         S42                         S43                         S44
!                  MAG       ANG               MAG       ANG               MAG       ANG               MAG       ANG
00000000           0.0000    0.000             1.0000    0.000             0.0000    0.000             0.0000    0.000           
                   1.0000    0.000             0.0000    0.000             0.0000    0.000             0.0000    0.000           
                   0.0000    0.000             0.0000    0.000             0.0000    0.000             1.0000    0.000           
                   0.0000    0.000             0.0000    0.000             1.0000    0.000             0.0000    0.000  

5e+007             0.03827        67.995       0.99257        -6.004       0.036199         81.94      0.01237       -107.46      
                   0.9893        -6.095        0.044078        65.25       0.01173       -104.33       0.034363        81.757     
                   0.036458        74.021      0.013474       -111.27      0.031493        67.641      0.99184       -5.9057      
                   0.012062        -114.9      0.031765        85.599      0.99504       -5.3745       0.044807        69.16      
 
6.25e+007          0.058691        73.359      0.98925       -8.4958       0.044553        80.394      0.014378       -114.61     
                   0.99627        -8.455       0.064863        77.27       0.015092       -115.34      0.044594         80.42     
                   0.042721        81.346      0.014949       -112.51      0.059109        75.789      0.99227       -8.4822      
                   0.01326       -107.21       0.045652        79.609      0.98933       -8.4558       0.055732        83.62      
 
7.5e+007           0.060171        75.513      0.99425       -9.7618       0.052223        76.247      0.01729       -116.51      
                   0.99487       -9.8628       0.073138        92.91       0.016975       -115.46      0.053088        77.922     
                   0.054592        76.318      0.017601       -116.63      0.062134         76.32      0.9949       -9.7304       
                   0.018192       -110.46      0.054719        79.457      0.99569       -9.9508       0.073704        92.54      
 
8.75e+007          0.073793        77.963      0.99597       -11.338       0.061196        76.048      0.020405        -120.2     
                   0.99441       -11.327       0.085745        94.09       0.019895       -120.95      0.061475        76.606     
                   0.060911        73.769      0.019582       -121.46      0.074836        78.781      0.99198       -11.398      
                   0.019276       -120.77      0.062954         75.69      0.99284       -11.124       0.085938        94.25      
 
1e+008             0.088819        70.993      0.98786       -12.926       0.068429        73.699      0.022357       -123.98     
                   0.98526       -12.839       0.086939        79.77       0.021565       -125.52      0.06872        74.771      
                   0.067601        73.301      0.022244       -125.25      0.088418        70.883      0.98678       -12.897      
                   0.022784       -126.03      0.069882        74.596      0.9856       -12.725        0.083021        79.88      
 
1.125e+008         0.095244        70.613      0.98458       -14.577       0.07663        71.864       0.024933       -129.69     
                   0.98667       -14.439       0.090609        81.18       0.024995       -128.76      0.07755        73.079      
                   0.076683        72.428      0.024228       -128.07      0.094569        69.894      0.98378       -14.398      
                   0.024551       -129.26      0.076253        72.893      0.98695       -14.388       0.089829        84.08      
 
1.25e+008          0.11076          66.5       0.98103       -15.995       0.08433        70.286       0.026414       -132.37     
                   0.98142       -16.074       0.1051        70.79         0.026237       -133.21      0.084973        71.533     
                   0.0842        70.857        0.02686       -132.12       0.10969        66.186       0.98013       -15.914      
                   0.026501       -132.04      0.08485        71.898       0.98168       -16.036       0.10311        74.55       
 
1.375e+008         0.11775        63.928       0.97696        -17.92       0.091022        68.786      0.028319       -136.11     
                   0.97719       -17.752       0.12271         75.3        0.027998        -137.2      0.092117        69.892     
                   0.091301        68.746      0.02793       -136.39       0.11661         63.78       0.97523       -17.744      
                   0.028422       -135.54      0.092374        69.501      0.97654       -17.667       0.12008         73.9       
 
1.5e+008           0.12403         62.24       0.97603       -19.056       0.099204        67.213      0.030049        -138.6     
                   0.9747       -19.246        0.11958        75.06        0.029921       -139.77      0.10015        68.344      
                   0.098697        67.205      0.03009       -139.81       0.12274        62.237       0.97727       -18.925      
                   0.029323       -139.73      0.099657        68.223      0.9746       -19.218        0.12031        73.40       
 
1.625e+008         0.12775        59.843       0.97262       -20.636       0.10558        65.863       0.031668       -143.29     
                   0.97287       -20.563       0.12486        70.74        0.031125       -143.55      0.10692        66.834      
                   0.10547        65.912       0.030748       -143.03      0.12624         59.72       0.9712       -20.582       
                   0.03138        -143.3       0.10697        67.413       0.97249        -20.42       0.12388        71.01       
 
1.75e+008          0.13003        58.232       0.97085       -21.891       0.11327        64.562       0.03271       -145.93      
                   0.97024       -21.806       0.13856        68.32        0.031884       -145.95      0.11437        65.839      
                   0.11278        64.406       0.032173       -146.28      0.12762        57.949       0.97103        -21.97      
                   0.032388       -146.01      0.11432        65.635       0.9711       -21.875        0.13448        66.66       
 
1.875e+008         0.13508        57.304       0.97573       -23.504       0.12085        62.948       0.033862       -149.15     
                   0.97246       -23.493       0.13759        69.05        0.033503       -149.19      0.1221        64.205       
                   0.12031        62.856       0.033281        -148.9      0.13346        57.399       0.9722       -23.386       
                   0.034306       -149.37      0.12174        64.342       0.97132       -23.317       0.13456        68.30       
 
2e+008             0.13665        55.826       0.97124       -24.918       0.1278        61.747        0.034773       -152.27     
                   0.96812       -24.717       0.14181        67.08        0.034727       -151.66      0.12905        63.015      
                   0.12698        61.789       0.034383       -151.83      0.13533        55.608       0.97029       -24.891      
                   0.034921       -152.37      0.12915        63.035       0.96839       -24.522       0.13623        67.06       
 
2.125e+008         0.13711        53.581       0.97122       -26.307       0.13493        60.275       0.035586       -155.21     
                   0.97005       -26.232       0.13805        68.23        0.0353       -154.66        0.13635        61.753      
                   0.13463        60.441       0.035389       -154.96      0.13439        53.328       0.96918       -26.135      
                   0.035633       -155.15      0.13625        61.818       0.968       -26.197         0.13705        68.15       
 
2.25e+008          0.13679         51.17       0.96885       -27.738       0.14135        58.969       0.03624        -157.6      
                   0.96704       -27.647       0.12958        65.41        0.035751       -157.73      0.143        60.519        
                   0.14144         58.94       0.035787       -157.64      0.13411        51.203       0.96725       -27.573      
                   0.036081       -157.45      0.14345        60.506       0.96813       -27.685       0.12672        65.30       
 
2.375e+008         0.13904        50.252       0.96411        -29.23       0.14805        57.648       0.036425       -160.16     
                   0.96605       -29.259       0.13428        65.92        0.036079       -160.71      0.14981        59.174      
                   0.148         57.46         0.036214       -159.99      0.1359        50.133        0.96441        -29.11      
                   0.036513       -160.41      0.15021        59.021       0.9658       -29.236        0.12992        65.24       
 
2.5e+008           0.13727        47.798       0.96252       -30.534       0.15431         56.15       0.036534       -162.54     
                   0.96143       -30.518       0.13159        61.72        0.036241       -162.28      0.15637            58      
                   0.15398        56.382       0.035971       -162.25      0.13403         47.66       0.96144       -30.357      
                   0.036545       -161.98      0.15618        58.033       0.96078       -30.351       0.12863        61.74       
 
2.625e+008         0.13312        46.719       0.95988       -31.855       0.1611         55.27        0.03686       -164.83      
                   0.96361       -31.807       0.12682        64.63        0.036528        -164.2      0.16303        56.866      
                   0.16112        55.222       0.036379       -164.42      0.12899        46.865       0.96004       -31.656      
                   0.036855        -164.7      0.1635        56.871        0.96298       -31.732       0.1248        63.98        
 
2.75e+008          0.13145        45.466       0.96355       -33.023       0.16821        53.755       0.037008       -166.53     
                   0.96082       -33.362       0.1303         62.6         0.036673       -166.89      0.17034        55.565      
                   0.16789          53.8       0.036266       -166.83      0.12757        45.334       0.96342       -32.994      
                   0.036807       -167.17      0.16994        55.489       0.96244        -33.22       0.12652        62.81       
 
2.875e+008         0.12784        43.392       0.95868       -34.799       0.17407        52.422       0.036291       -168.67     
                   0.96086       -34.702       0.12962        60.01        0.036223       -168.35      0.17639        54.267      
                   0.1741        52.566        0.036085       -168.54      0.1238        43.175        0.95863       -34.673      
                   0.036772       -168.85      0.17626        54.151       0.96157       -34.552       0.12305        58.87       
 
3e+008             0.1257        42.816        0.95902       -36.026       0.18094        51.284       0.03622       -170.23      
                   0.95962       -36.181       0.1252        57.18         0.035991       -170.03      0.18338        53.111      
                   0.18076        51.185       0.036128       -169.97      0.12084        42.505       0.9595       -35.979       
                   0.036591       -169.76      0.18315        52.983       0.96064       -36.017       0.12105        57.07       
 
3.125e+008         0.12296        41.771       0.95961       -37.633       0.18653        49.722       0.035845       -171.29     
                   0.95703       -37.588       0.12324        54.63        0.035706       -171.25      0.18962        51.617      
                   0.18709        49.697       0.035578       -171.31      0.11751        41.499       0.95981        -37.52      
                   0.035751       -171.55      0.18947        51.641       0.9579       -37.638        0.11905        54.67       
 
3.25e+008          0.11896         39.58       0.9544        -39.12        0.19278        48.456       0.035501       -172.34     
                   0.95831       -39.066       0.11306        51.91        0.035095       -172.49      0.19554        50.357      
                   0.19302        48.535       0.035134       -172.39      0.11322        39.389       0.95582       -38.999      
                   0.03561       -172.42       0.19597        50.409       0.95829        -38.94       0.10621        50.71       
 
3.375e+008         0.11651        38.662       0.95493       -40.514       0.19935        46.923       0.035068       -173.41     
                   0.95521       -40.483       0.11224        51.34        0.034797       -173.16      0.20218        48.948      
                   0.19882         47.05       0.034659       -173.11      0.11035        38.172       0.95423       -40.295      
                   0.034921        -173.1      0.2017        48.985        0.95471       -40.372       0.10554        50.98       
 
3.5e+008           0.11237         36.36       0.95209       -41.972       0.20477        45.734       0.034432       -173.57     
                   0.95212       -41.861       0.10365         47.2        0.034311       -173.58      0.2075        47.751       
                   0.20472        45.719       0.034156       -173.38      0.10616        35.588       0.9529       -41.762       
                   0.034506       -173.26      0.20765        47.761       0.95279       -41.722       0.097256        47.31      
 
3.625e+008         0.107        34.649         0.95167       -43.142       0.21112         44.52       0.034069       -173.25     
                   0.95187       -43.348       0.096357        47.50       0.03388       -173.42       0.21426        46.581      
                   0.21101        44.241       0.034012       -173.02      0.10044        33.738       0.95329       -43.026      
                   0.034194       -173.16      0.21383        46.394       0.95177       -43.358       0.090801        47.59      
 
3.75e+008          0.10118        32.241       0.95219       -44.765       0.21666        42.908       0.033827       -172.77     
                   0.95053        -44.81       0.095111        42.62       0.033545       -172.86      0.2195            45       
                   0.21684        42.958       0.033739       -172.94      0.094552        31.152      0.95315       -44.677      
                   0.033854       -173.03      0.21965        44.994       0.95181       -44.682       0.08943        42.11       
 
3.875e+008         0.095383        30.664      0.94718       -46.223       0.22199        41.648       0.033753       -172.43     
                   0.94952       -46.195       0.093876        42.77       0.033452        -172.2      0.22485        43.831      
                   0.22251        41.581       0.033404       -172.37      0.08818        29.202       0.94863       -46.116      
                   0.033812       -172.52      0.22537        43.796       0.95045       -46.076       0.087807        43.07      
 
4e+008             0.089739        28.484      0.95038       -47.431       0.22886        40.181       0.033907       -171.29     
                   0.94897       -47.513       0.079897        41.44       0.033401       -171.43      0.23137        42.546      
                   0.22826        40.193       0.033551       -171.11      0.082872        26.552      0.95065       -47.323      
                   0.033994       -171.31      0.23079        42.597       0.95005        -47.42       0.072448        42.22      
 
4.125e+008         0.084359         25.41      0.94697       -49.141       0.23357        38.744       0.033984       -170.37     
                   0.94838       -49.015       0.073477        38.48       0.033566       -170.23      0.23626        41.072      
